T4B70 000:006.214   SEGGER J-Link V7.22b Log File
T4B70 000:006.399   DLL Compiled: Jun 17 2021 17:22:49
T4B70 000:006.407   Logging started @ 2022-05-08 23:52
T4B70 000:006.413 - 6.417ms
T4B70 000:006.428 JLINK_SetWarnOutHandler(...)
T4B70 000:006.436 - 0.011ms
T4B70 000:006.445 JLINK_OpenEx(...)
T4B70 000:073.636   TELNET listener socket opened on port 19021
T4B70 000:073.893   WEBSRV Starting webserver
T4B70 000:074.073   WEBSRV Webserver running on local port 19080
T4B70 000:074.087 - 67.646ms returns "O.K."
T4B70 000:074.111 JLINK_GetEmuCaps()
T4B70 000:074.119 - 0.011ms returns 0x98E61B83
T4B70 000:074.134 JLINK_TIF_GetAvailable(...)
T4B70 000:074.141 - 0.010ms
T4B70 000:074.149 JLINK_SetErrorOutHandler(...)
T4B70 000:074.156 - 0.010ms
T4B70 000:074.183 JLINK_ExecCommand("ProjectFile = "C:\Users\alvaro\Desktop\SEDA\SEDA ALVARO\Practica 1 pantalla\TP_Simple_v4_KEIL4\TP_Simple_v4_KEIL4\MDK-ARM\JLinkSettings.ini"", ...). 
T4B70 000:084.283 - 10.122ms returns 0x00
T4B70 000:087.351 JLINK_ExecCommand("Device = LPC1768", ...). 
T4B70 000:091.059   Device "LPC1768" selected.
T4B70 000:091.442 - 4.095ms returns 0x00
T4B70 000:091.491 JLINK_GetHardwareVersion()
T4B70 000:093.293 - 1.826ms returns 10000
T4B70 000:093.328 JLINK_GetDLLVersion()
T4B70 000:093.335 - 0.010ms returns 72202
T4B70 000:093.344 JLINK_GetOEMString(...)
T4B70 000:093.353 JLINK_GetFirmwareString(...)
T4B70 000:093.362 - 0.012ms
T4B70 000:099.926 JLINK_GetDLLVersion()
T4B70 000:099.940 - 0.017ms returns 72202
T4B70 000:099.949 JLINK_GetCompileDateTime()
T4B70 000:099.956 - 0.010ms
T4B70 000:102.233 JLINK_GetFirmwareString(...)
T4B70 000:102.251 - 0.022ms
T4B70 000:104.365 JLINK_GetHardwareVersion()
T4B70 000:104.391 - 0.041ms returns 10000
T4B70 000:106.445 JLINK_GetSN()
T4B70 000:106.459 - 0.017ms returns 1042058143
T4B70 000:108.428 JLINK_GetOEMString(...)
T4B70 000:110.397 JLINK_TIF_Select(JLINKARM_TIF_SWD)
T4B70 000:116.310 - 5.948ms returns 0x00
T4B70 000:116.358 JLINK_HasError()
T4B70 000:116.404 JLINK_SetSpeed(5000)
T4B70 000:118.222 - 1.846ms
T4B70 000:118.262 JLINK_GetId()
T4B70 000:132.611   Found SW-DP with ID 0x2BA01477
T4B70 000:152.266   Old FW that does not support reading DPIDR via DAP jobs
T4B70 000:156.682   DPv0 detected
T4B70 000:158.798   Scanning AP map to find all available APs
T4B70 000:164.693   AP[1]: Stopped AP scan as end of AP map has been reached
T4B70 000:166.701   AP[0]: AHB-AP (IDR: 0x24770011)
T4B70 000:168.876   Iterating through AP map to find AHB-AP to use
T4B70 000:175.230   AP[0]: Core found
T4B70 000:177.376   AP[0]: AHB-AP ROM base: 0xE00FF000
T4B70 000:181.742   CPUID register: 0x412FC230. Implementer code: 0x41 (ARM)
T4B70 000:184.257   Found Cortex-M3 r2p0, Little endian.
T4B70 000:287.133   -- Max. mem block: 0xFFFFFEFA
T4B70 000:287.178    -- CPU_ReadMem(4 bytes @ 0xE000EDF0)
T4B70 000:297.230    -- CPU_WriteMem(4 bytes @ 0xE000EDF0)
T4B70 000:311.312    -- CPU_ReadMem(4 bytes @ 0xE0002000)
T4B70 000:324.697   FPUnit: 6 code (BP) slots and 2 literal slots
T4B70 000:324.729    -- CPU_ReadMem(4 bytes @ 0xE000EDFC)
T4B70 000:334.251    -- CPU_WriteMem(4 bytes @ 0xE000EDFC)
T4B70 000:348.231    -- CPU_ReadMem(4 bytes @ 0xE0001000)
T4B70 000:358.307    -- CPU_WriteMem(4 bytes @ 0xE0001000)
T4B70 000:372.274    -- CPU_ReadMem(4 bytes @ 0xE000ED88)
T4B70 000:382.291    -- CPU_WriteMem(4 bytes @ 0xE000ED88)
T4B70 000:396.310    -- CPU_ReadMem(4 bytes @ 0xE000ED88)
T4B70 000:406.240    -- CPU_WriteMem(4 bytes @ 0xE000ED88)
T4B70 000:423.000   CoreSight components:
T4B70 000:425.069   ROMTbl[0] @ E00FF000
T4B70 000:425.090    -- CPU_ReadMem(64 bytes @ 0xE00FF000)
T4B70 000:437.359    -- CPU_ReadMem(32 bytes @ 0xE000EFE0)
T4B70 000:450.225   ROMTbl[0][0]: E000E000, CID: B105E00D, PID: 002BB000 SCS
T4B70 000:450.254    -- CPU_ReadMem(32 bytes @ 0xE0001FE0)
T4B70 000:462.864   ROMTbl[0][1]: E0001000, CID: B105E00D, PID: 002BB002 DWT
T4B70 000:462.895    -- CPU_ReadMem(32 bytes @ 0xE0002FE0)
T4B70 000:474.668   ROMTbl[0][2]: E0002000, CID: B105E00D, PID: 002BB003 FPB
T4B70 000:474.764    -- CPU_ReadMem(32 bytes @ 0xE0000FE0)
T4B70 000:487.064   ROMTbl[0][3]: E0000000, CID: B105E00D, PID: 002BB001 ITM
T4B70 000:487.099    -- CPU_ReadMem(32 bytes @ 0xE0040FE0)
T4B70 000:500.853   ROMTbl[0][4]: E0040000, CID: B105900D, PID: 002BB923 TPIU-Lite
T4B70 000:500.890    -- CPU_ReadMem(32 bytes @ 0xE0041FE0)
T4B70 000:512.801   ROMTbl[0][5]: E0041000, CID: B105900D, PID: 002BB924 ETM-M3
T4B70 000:514.273 - 396.036ms returns 0x2BA01477
T4B70 000:514.317 JLINK_GetDLLVersion()
T4B70 000:514.324 - 0.010ms returns 72202
T4B70 000:514.333 JLINK_CORE_GetFound()
T4B70 000:514.340 - 0.010ms returns 0x30000FF
T4B70 000:514.350 JLINK_GetDebugInfo(0x100 = JLINKARM_ROM_TABLE_ADDR_INDEX)
T4B70 000:514.360   Value=0xE00FF000
T4B70 000:514.370 - 0.022ms returns 0
T4B70 000:516.781 JLINK_GetDebugInfo(0x100 = JLINKARM_ROM_TABLE_ADDR_INDEX)
T4B70 000:516.796   Value=0xE00FF000
T4B70 000:516.806 - 0.027ms returns 0
T4B70 000:516.814 JLINK_GetDebugInfo(0x101 = JLINKARM_DEBUG_INFO_ETM_ADDR_INDEX)
T4B70 000:516.822   Value=0xE0041000
T4B70 000:516.831 - 0.020ms returns 0
T4B70 000:516.856 JLINK_ReadMemEx(0xE0041FD0, 0x20 Bytes, Flags = 0x02000004)
T4B70 000:516.890    -- CPU_ReadMem(32 bytes @ 0xE0041FD0)
T4B70 000:526.370   Data:  04 00 00 00 00 00 00 00 00 00 00 00 00 00 00 00 ...
T4B70 000:526.403 - 9.550ms returns 32 (0x20)
T4B70 000:526.418 JLINK_GetDebugInfo(0x102 = JLINKARM_DEBUG_INFO_MTB_ADDR_INDEX)
T4B70 000:526.427   Value=0x00000000
T4B70 000:526.437 - 0.022ms returns 0
T4B70 000:526.446 JLINK_GetDebugInfo(0x103 = JLINKARM_DEBUG_INFO_TPIU_ADDR_INDEX)
T4B70 000:526.453   Value=0xE0040000
T4B70 000:526.462 - 0.030ms returns 0
T4B70 000:526.481 JLINK_GetDebugInfo(0x104 = JLINKARM_DEBUG_INFO_ITM_ADDR_INDEX)
T4B70 000:526.488   Value=0xE0000000
T4B70 000:526.497 - 0.019ms returns 0
T4B70 000:526.505 JLINK_GetDebugInfo(0x105 = JLINKARM_DEBUG_INFO_DWT_ADDR_INDEX)
T4B70 000:526.512   Value=0xE0001000
T4B70 000:526.521 - 0.019ms returns 0
T4B70 000:526.530 JLINK_GetDebugInfo(0x106 = JLINKARM_DEBUG_INFO_FPB_ADDR_INDEX)
T4B70 000:526.536   Value=0xE0002000
T4B70 000:526.546 - 0.019ms returns 0
T4B70 000:526.554 JLINK_GetDebugInfo(0x107 = JLINKARM_DEBUG_INFO_NVIC_ADDR_INDEX)
T4B70 000:526.560   Value=0xE000E000
T4B70 000:526.570 - 0.019ms returns 0
T4B70 000:526.578 JLINK_GetDebugInfo(0x10C = JLINKARM_DEBUG_INFO_DBG_ADDR_INDEX)
T4B70 000:526.585   Value=0xE000EDF0
T4B70 000:526.594 - 0.019ms returns 0
T4B70 000:526.602 JLINK_GetDebugInfo(0x01 = Unknown)
T4B70 000:526.609   Value=0x00000000
T4B70 000:526.619 - 0.020ms returns 0
T4B70 000:526.627 JLINK_ReadMemU32(0xE000ED00, 0x1 Items)
T4B70 000:526.643    -- CPU_ReadMem(4 bytes @ 0xE000ED00)
T4B70 000:536.283   Data:  30 C2 2F 41
T4B70 000:536.325   Debug reg: CPUID
T4B70 000:536.335 - 9.711ms returns 1 (0x1)
T4B70 000:536.350 JLINK_GetDebugInfo(0x10F = JLINKARM_DEBUG_INFO_HAS_CORTEX_M_SECURITY_EXT_INDEX)
T4B70 000:536.359   Value=0x00000000
T4B70 000:536.368 - 0.021ms returns 0
T4B70 000:536.377 JLINK_HasError()
T4B70 000:536.386 JLINK_SetResetType(JLINKARM_CM3_RESET_TYPE_NORMAL)
T4B70 000:536.392 - 0.010ms returns ???
T4B70 000:536.412 JLINK_Reset()
T4B70 000:536.434   CPU is running
T4B70 000:536.446    -- CPU_WriteMem(4 bytes @ 0xE000EDF0)
T4B70 000:550.284   CPU is running
T4B70 000:550.340    -- CPU_WriteMem(4 bytes @ 0xE000EDFC)
T4B70 000:566.783   Reset: Halt core after reset via DEMCR.VC_CORERESET.
T4B70 000:570.710   Reset: Reset device via AIRCR.SYSRESETREQ.
T4B70 000:570.743   CPU is running
T4B70 000:570.757    -- CPU_WriteMem(4 bytes @ 0xE000ED0C)
T4B70 000:639.286    -- CPU_ReadMem(4 bytes @ 0xE000EDF0)
T4B70 000:649.300    -- CPU_ReadMem(4 bytes @ 0xE000EDF0)
T4B70 000:659.242   CPU is running
T4B70 000:659.270    -- CPU_WriteMem(4 bytes @ 0xE000EDF0)
T4B70 000:673.236   CPU is running
T4B70 000:673.253    -- CPU_WriteMem(4 bytes @ 0xE000EDFC)
T4B70 000:693.233    -- CPU_ReadMem(4 bytes @ 0xE000EDF0)
T4B70 000:741.288    -- CPU_WriteMem(4 bytes @ 0xE000EDFC)
T4B70 000:755.313    -- CPU_WriteMem(4 bytes @ 0xE000EDFC)
T4B70 000:769.335    -- CPU_WriteMem(4 bytes @ 0xE000EDFC)
T4B70 000:783.241    -- CPU_WriteMem(4 bytes @ 0xE000EDFC)
T4B70 000:797.270    -- CPU_WriteMem(4 bytes @ 0xE000EDFC)
T4B70 000:811.307    -- CPU_WriteMem(4 bytes @ 0xE0001050)
T4B70 000:825.302    -- CPU_WriteMem(4 bytes @ 0xE0001054)
T4B70 000:839.341    -- CPU_WriteMem(4 bytes @ 0xE0001058)
T4B70 000:853.344    -- CPU_ReadMem(4 bytes @ 0xE0001000)
T4B70 001:029.298    -- CPU_WriteMem(4 bytes @ 0xE000EDFC)
T4B70 001:043.307    -- CPU_WriteMem(4 bytes @ 0xE0001058)
T4B70 001:057.348    -- CPU_ReadMem(4 bytes @ 0x00000004)
T4B70 001:067.200    -- CPU_ReadMem(4 bytes @ 0xE0002000)
T4B70 001:077.292    -- CPU_ReadMem(4 bytes @ 0xE0002008)
T4B70 001:087.281    -- CPU_ReadMem(4 bytes @ 0xE000200C)
T4B70 001:097.255    -- CPU_ReadMem(4 bytes @ 0xE0002010)
T4B70 001:107.263    -- CPU_ReadMem(4 bytes @ 0xE0002014)
T4B70 001:117.291    -- CPU_ReadMem(4 bytes @ 0xE0002018)
T4B70 001:127.303    -- CPU_ReadMem(4 bytes @ 0xE000201C)
T4B70 001:137.308    -- CPU_WriteMem(4 bytes @ 0xE0002000)
T4B70 001:151.203    -- CPU_WriteMem(4 bytes @ 0xE0002008)
T4B70 001:165.295    -- CPU_WriteMem(4 bytes @ 0xE000200C)
T4B70 001:179.307    -- CPU_WriteMem(4 bytes @ 0xE0002010)
T4B70 001:193.329    -- CPU_WriteMem(4 bytes @ 0xE0002014)
T4B70 001:207.309    -- CPU_WriteMem(4 bytes @ 0xE0002018)
T4B70 001:221.325    -- CPU_WriteMem(4 bytes @ 0xE000201C)
T4B70 001:235.343    -- CPU_ReadMem(4 bytes @ 0xE0001000)
T4B70 001:411.352    -- CPU_ReadMem(4 bytes @ 0x400FC040)
T4B70 001:421.328    -- CPU_WriteMem(4 bytes @ 0xE0002000)
T4B70 001:435.318    -- CPU_WriteMem(4 bytes @ 0xE0002008)
T4B70 001:449.306    -- CPU_WriteMem(4 bytes @ 0xE000200C)
T4B70 001:463.353    -- CPU_WriteMem(4 bytes @ 0xE0002010)
T4B70 001:477.306    -- CPU_WriteMem(4 bytes @ 0xE0002014)
T4B70 001:491.323    -- CPU_WriteMem(4 bytes @ 0xE0002018)
T4B70 001:505.260    -- CPU_WriteMem(4 bytes @ 0xE000201C)
T4B70 001:519.243    -- CPU_WriteMem(4 bytes @ 0xE0002000)
T4B70 001:533.365    -- CPU_ReadMem(4 bytes @ 0xE000EDFC)
T4B70 001:543.208    -- CPU_ReadMem(4 bytes @ 0xE0001000)
T4B70 001:553.302 - 1016.914ms
T4B70 001:553.343 JLINK_Halt()
T4B70 001:553.350 - 0.010ms returns 0x00
T4B70 001:553.359 JLINK_ReadMemU32(0xE000EDF0, 0x1 Items)
T4B70 001:553.378    -- CPU_ReadMem(4 bytes @ 0xE000EDF0)
T4B70 001:563.291   Data:  03 00 03 00
T4B70 001:563.324   Debug reg: DHCSR
T4B70 001:563.334 - 9.978ms returns 1 (0x1)
T4B70 001:563.352 JLINK_WriteU32_64(0xE000EDF0, 0xA05F0003)
T4B70 001:563.369   Debug reg: DHCSR
T4B70 001:563.642    -- CPU_WriteMem(4 bytes @ 0xE000EDF0)
T4B70 001:577.301 - 13.974ms returns 0 (0x00000000)
T4B70 001:577.352 JLINK_WriteU32_64(0xE000EDFC, 0x01000000)
T4B70 001:577.361   Debug reg: DEMCR
T4B70 001:577.385    -- CPU_WriteMem(4 bytes @ 0xE000EDFC)
T4B70 001:591.326 - 14.006ms returns 0 (0x00000000)
T4B70 001:599.691 JLINK_GetHWStatus(...)
T4B70 001:601.203 - 1.534ms returns 0
T4B70 001:607.589 JLINK_GetNumBPUnits(Type = 0xFFFFFF00)
T4B70 001:607.605 - 0.019ms returns 0x06
T4B70 001:607.614 JLINK_GetNumBPUnits(Type = 0xF0)
T4B70 001:607.621 - 0.010ms returns 0x2000
T4B70 001:607.629 JLINK_GetNumWPUnits()
T4B70 001:607.635 - 0.009ms returns 4
T4B70 001:613.582 JLINK_GetSpeed()
T4B70 001:613.595 - 0.016ms returns 5000
T4B70 001:617.617 JLINK_ReadMemU32(0xE000E004, 0x1 Items)
T4B70 001:617.658    -- CPU_ReadMem(4 bytes @ 0xE000E004)
T4B70 001:627.284   Data:  01 00 00 00
T4B70 001:627.316 - 9.703ms returns 1 (0x1)
T4B70 001:627.331 JLINK_ReadMemU32(0xE000E004, 0x1 Items)
T4B70 001:627.350    -- CPU_ReadMem(4 bytes @ 0xE000E004)
T4B70 001:637.333   Data:  01 00 00 00
T4B70 001:637.365 - 10.037ms returns 1 (0x1)
T4B70 001:637.380 JLINK_WriteMemEx(0xE0001000, 0x0000001C Bytes, Flags = 0x02000004)
T4B70 001:637.388   Data:  01 00 00 00 00 00 00 00 00 00 00 00 00 00 00 00 ...
T4B70 001:637.412    -- CPU_WriteMem(28 bytes @ 0xE0001000)
T4B70 001:651.248 - 13.885ms returns 0x1C
T4B70 001:651.749 JLINK_Halt()
T4B70 001:651.791 - 0.045ms returns 0x00
T4B70 001:651.800 JLINK_IsHalted()
T4B70 001:651.811    -- CPU_ReadMem(4 bytes @ 0x400FC040)
T4B70 001:661.283 - 9.509ms returns TRUE
T4B70 001:665.273 JLINK_WriteMem(0x10000000, 0x1E4 Bytes, ...)
T4B70 001:665.286   Data:  00 BE 0A E0 0D 78 2D 06 68 40 08 24 40 00 00 D3 ...
T4B70 001:665.548    -- CPU_WriteMem(484 bytes @ 0x10000000)
T4B70 001:695.302 - 30.054ms returns 0x1E4
T4B70 001:695.771 JLINK_HasError()
T4B70 001:695.789 JLINK_WriteReg(R0, 0x00000000)
T4B70 001:695.801 - 0.015ms returns 0
T4B70 001:695.809 JLINK_WriteReg(R1, 0x00B71B00)
T4B70 001:695.817 - 0.010ms returns 0
T4B70 001:695.825 JLINK_WriteReg(R2, 0x00000001)
T4B70 001:695.832 - 0.010ms returns 0
T4B70 001:695.840 JLINK_WriteReg(R3, 0x00000000)
T4B70 001:695.847 - 0.010ms returns 0
T4B70 001:695.856 JLINK_WriteReg(R4, 0x00000000)
T4B70 001:695.863 - 0.010ms returns 0
T4B70 001:695.871 JLINK_WriteReg(R5, 0x00000000)
T4B70 001:695.878 - 0.010ms returns 0
T4B70 001:695.886 JLINK_WriteReg(R6, 0x00000000)
T4B70 001:695.893 - 0.010ms returns 0
T4B70 001:695.901 JLINK_WriteReg(R7, 0x00000000)
T4B70 001:695.908 - 0.010ms returns 0
T4B70 001:695.916 JLINK_WriteReg(R8, 0x00000000)
T4B70 001:695.941 - 0.028ms returns 0
T4B70 001:695.950 JLINK_WriteReg(R9, 0x100001DC)
T4B70 001:695.957 - 0.010ms returns 0
T4B70 001:695.965 JLINK_WriteReg(R10, 0x00000000)
T4B70 001:695.972 - 0.010ms returns 0
T4B70 001:695.981 JLINK_WriteReg(R11, 0x00000000)
T4B70 001:695.988 - 0.010ms returns 0
T4B70 001:695.996 JLINK_WriteReg(R12, 0x00000000)
T4B70 001:696.003 - 0.010ms returns 0
T4B70 001:696.011 JLINK_WriteReg(R13 (SP), 0x10000800)
T4B70 001:696.019 - 0.011ms returns 0
T4B70 001:696.027 JLINK_WriteReg(R14, 0x10000001)
T4B70 001:696.034 - 0.010ms returns 0
T4B70 001:696.043 JLINK_WriteReg(R15 (PC), 0x10000044)
T4B70 001:696.054 - 0.015ms returns 0
T4B70 001:696.063 JLINK_WriteReg(XPSR, 0x01000000)
T4B70 001:696.070 - 0.010ms returns 0
T4B70 001:696.078 JLINK_WriteReg(MSP, 0x10000800)
T4B70 001:696.085 - 0.010ms returns 0
T4B70 001:696.094 JLINK_WriteReg(PSP, 0x10000800)
T4B70 001:696.101 - 0.010ms returns 0
T4B70 001:696.109 JLINK_WriteReg(CFBP, 0x00000000)
T4B70 001:696.116 - 0.010ms returns 0
T4B70 001:696.124 JLINK_SetBPEx(Addr = 0x10000000, Type = 0xFFFFFFF2)
T4B70 001:696.134 - 0.012ms returns 0x00000001
T4B70 001:696.142 JLINK_Go()
T4B70 001:696.155    -- CPU_WriteMem(4 bytes @ 0xE0002000)
T4B70 001:710.332    -- CPU_ReadMem(4 bytes @ 0xE0001000)
T4B70 001:720.292    -- CPU_WriteMem(4 bytes @ 0xE0002008)
T4B70 001:734.318    -- CPU_WriteMem(4 bytes @ 0xE000200C)
T4B70 001:748.301    -- CPU_WriteMem(4 bytes @ 0xE0002010)
T4B70 001:762.318    -- CPU_WriteMem(4 bytes @ 0xE0002014)
T4B70 001:776.236    -- CPU_WriteMem(4 bytes @ 0xE0002018)
T4B70 001:790.301    -- CPU_WriteMem(4 bytes @ 0xE000201C)
T4B70 001:804.308    -- CPU_WriteMem(4 bytes @ 0xE0001004)
T4B70 001:872.302 - 176.184ms
T4B70 001:872.353 JLINK_IsHalted()
T4B70 001:910.308 - 37.979ms returns TRUE
T4B70 001:910.359 JLINK_ReadReg(R15 (PC))
T4B70 001:910.371 - 0.015ms returns 0x10000000
T4B70 001:910.796 JLINK_ClrBPEx(BPHandle = 0x00000001)
T4B70 001:910.823 - 0.030ms returns 0x00
T4B70 001:910.833 JLINK_ReadReg(R0)
T4B70 001:910.840 - 0.011ms returns 0x00000000
T4B70 001:911.216 JLINK_HasError()
T4B70 001:911.241 JLINK_WriteReg(R0, 0x00000000)
T4B70 001:911.253 - 0.030ms returns 0
T4B70 001:911.276 JLINK_WriteReg(R1, 0x00001000)
T4B70 001:911.293 - 0.020ms returns 0
T4B70 001:911.302 JLINK_WriteReg(R2, 0x000000FF)
T4B70 001:911.309 - 0.010ms returns 0
T4B70 001:911.317 JLINK_WriteReg(R3, 0x00000000)
T4B70 001:911.334 - 0.020ms returns 0
T4B70 001:911.342 JLINK_WriteReg(R4, 0x00000000)
T4B70 001:911.349 - 0.010ms returns 0
T4B70 001:911.357 JLINK_WriteReg(R5, 0x00000000)
T4B70 001:911.364 - 0.010ms returns 0
T4B70 001:911.372 JLINK_WriteReg(R6, 0x00000000)
T4B70 001:911.378 - 0.010ms returns 0
T4B70 001:911.386 JLINK_WriteReg(R7, 0x00000000)
T4B70 001:911.393 - 0.010ms returns 0
T4B70 001:911.447 JLINK_WriteReg(R8, 0x00000000)
T4B70 001:911.459 - 0.015ms returns 0
T4B70 001:911.467 JLINK_WriteReg(R9, 0x100001DC)
T4B70 001:911.474 - 0.010ms returns 0
T4B70 001:911.482 JLINK_WriteReg(R10, 0x00000000)
T4B70 001:911.489 - 0.010ms returns 0
T4B70 001:911.497 JLINK_WriteReg(R11, 0x00000000)
T4B70 001:911.504 - 0.010ms returns 0
T4B70 001:911.512 JLINK_WriteReg(R12, 0x00000000)
T4B70 001:911.518 - 0.010ms returns 0
T4B70 001:911.526 JLINK_WriteReg(R13 (SP), 0x10000800)
T4B70 001:911.534 - 0.010ms returns 0
T4B70 001:911.542 JLINK_WriteReg(R14, 0x10000001)
T4B70 001:911.549 - 0.010ms returns 0
T4B70 001:911.557 JLINK_WriteReg(R15 (PC), 0x10000020)
T4B70 001:911.564 - 0.010ms returns 0
T4B70 001:911.572 JLINK_WriteReg(XPSR, 0x01000000)
T4B70 001:911.578 - 0.010ms returns 0
T4B70 001:911.586 JLINK_WriteReg(MSP, 0x10000800)
T4B70 001:911.593 - 0.010ms returns 0
T4B70 001:911.601 JLINK_WriteReg(PSP, 0x10000800)
T4B70 001:911.608 - 0.010ms returns 0
T4B70 001:911.616 JLINK_WriteReg(CFBP, 0x00000000)
T4B70 001:911.623 - 0.010ms returns 0
T4B70 001:911.631 JLINK_SetBPEx(Addr = 0x10000000, Type = 0xFFFFFFF2)
T4B70 001:911.640 - 0.012ms returns 0x00000002
T4B70 001:911.648 JLINK_Go()
T4B70 001:911.660    -- CPU_WriteMem(4 bytes @ 0xE0002000)
T4B70 001:925.310    -- CPU_ReadMem(4 bytes @ 0xE0001000)
T4B70 001:989.312 - 77.689ms
T4B70 001:989.362 JLINK_IsHalted()
T4B70 002:027.277 - 37.937ms returns TRUE
T4B70 002:027.323 JLINK_ReadReg(R15 (PC))
T4B70 002:027.345 - 0.025ms returns 0x10000000
T4B70 002:027.355 JLINK_ClrBPEx(BPHandle = 0x00000002)
T4B70 002:027.363 - 0.011ms returns 0x00
T4B70 002:027.373 JLINK_ReadReg(R0)
T4B70 002:027.380 - 0.011ms returns 0x00000001
T4B70 002:027.856 JLINK_HasError()
T4B70 002:027.883 JLINK_WriteReg(R0, 0x00000000)
T4B70 002:027.893 - 0.014ms returns 0
T4B70 002:027.902 JLINK_WriteReg(R1, 0x00001000)
T4B70 002:027.909 - 0.010ms returns 0
T4B70 002:027.918 JLINK_WriteReg(R2, 0x000000FF)
T4B70 002:027.925 - 0.010ms returns 0
T4B70 002:027.933 JLINK_WriteReg(R3, 0x00000000)
T4B70 002:027.940 - 0.010ms returns 0
T4B70 002:027.948 JLINK_WriteReg(R4, 0x00000000)
T4B70 002:027.955 - 0.010ms returns 0
T4B70 002:027.963 JLINK_WriteReg(R5, 0x00000000)
T4B70 002:027.970 - 0.010ms returns 0
T4B70 002:027.978 JLINK_WriteReg(R6, 0x00000000)
T4B70 002:027.985 - 0.010ms returns 0
T4B70 002:027.994 JLINK_WriteReg(R7, 0x00000000)
T4B70 002:028.001 - 0.010ms returns 0
T4B70 002:028.009 JLINK_WriteReg(R8, 0x00000000)
T4B70 002:028.016 - 0.010ms returns 0
T4B70 002:028.024 JLINK_WriteReg(R9, 0x100001DC)
T4B70 002:028.031 - 0.010ms returns 0
T4B70 002:028.039 JLINK_WriteReg(R10, 0x00000000)
T4B70 002:028.046 - 0.010ms returns 0
T4B70 002:028.055 JLINK_WriteReg(R11, 0x00000000)
T4B70 002:028.062 - 0.010ms returns 0
T4B70 002:028.070 JLINK_WriteReg(R12, 0x00000000)
T4B70 002:028.077 - 0.010ms returns 0
T4B70 002:028.085 JLINK_WriteReg(R13 (SP), 0x10000800)
T4B70 002:028.093 - 0.011ms returns 0
T4B70 002:028.101 JLINK_WriteReg(R14, 0x10000001)
T4B70 002:028.108 - 0.010ms returns 0
T4B70 002:028.116 JLINK_WriteReg(R15 (PC), 0x10000110)
T4B70 002:028.123 - 0.010ms returns 0
T4B70 002:028.131 JLINK_WriteReg(XPSR, 0x01000000)
T4B70 002:028.138 - 0.010ms returns 0
T4B70 002:028.147 JLINK_WriteReg(MSP, 0x10000800)
T4B70 002:028.154 - 0.010ms returns 0
T4B70 002:028.162 JLINK_WriteReg(PSP, 0x10000800)
T4B70 002:028.169 - 0.010ms returns 0
T4B70 002:028.177 JLINK_WriteReg(CFBP, 0x00000000)
T4B70 002:028.184 - 0.010ms returns 0
T4B70 002:028.192 JLINK_SetBPEx(Addr = 0x10000000, Type = 0xFFFFFFF2)
T4B70 002:028.201 - 0.012ms returns 0x00000003
T4B70 002:028.209 JLINK_Go()
T4B70 002:028.222    -- CPU_WriteMem(4 bytes @ 0xE0002000)
T4B70 002:042.267    -- CPU_ReadMem(4 bytes @ 0xE0001000)
T4B70 002:106.292 - 78.120ms
T4B70 002:106.354 JLINK_IsHalted()
T4B70 002:120.349 - 14.029ms returns FALSE
T4B70 002:120.412 JLINK_HasError()
T4B70 002:135.334 JLINK_IsHalted()
T4B70 002:149.183 - 13.871ms returns FALSE
T4B70 002:149.217 JLINK_HasError()
T4B70 002:150.338 JLINK_IsHalted()
T4B70 002:164.270 - 13.967ms returns FALSE
T4B70 002:164.328 JLINK_HasError()
T4B70 002:166.300 JLINK_IsHalted()
T4B70 002:180.281 - 14.006ms returns FALSE
T4B70 002:180.333 JLINK_HasError()
T4B70 002:182.319 JLINK_IsHalted()
T4B70 002:196.300 - 14.015ms returns FALSE
T4B70 002:196.345 JLINK_HasError()
T4B70 002:198.331 JLINK_IsHalted()
T4B70 002:236.333 - 38.026ms returns TRUE
T4B70 002:236.382 JLINK_ReadReg(R15 (PC))
T4B70 002:236.394 - 0.015ms returns 0x10000000
T4B70 002:236.811 JLINK_ClrBPEx(BPHandle = 0x00000003)
T4B70 002:236.836 - 0.029ms returns 0x00
T4B70 002:236.846 JLINK_ReadReg(R0)
T4B70 002:236.854 - 0.011ms returns 0x00000000
T4B70 002:237.479 JLINK_HasError()
T4B70 002:237.493 JLINK_WriteReg(R0, 0x00001000)
T4B70 002:237.503 - 0.013ms returns 0
T4B70 002:237.511 JLINK_WriteReg(R1, 0x00001000)
T4B70 002:237.518 - 0.010ms returns 0
T4B70 002:237.526 JLINK_WriteReg(R2, 0x000000FF)
T4B70 002:237.533 - 0.010ms returns 0
T4B70 002:237.541 JLINK_WriteReg(R3, 0x00000000)
T4B70 002:237.548 - 0.010ms returns 0
T4B70 002:237.556 JLINK_WriteReg(R4, 0x00000000)
T4B70 002:237.563 - 0.010ms returns 0
T4B70 002:237.571 JLINK_WriteReg(R5, 0x00000000)
T4B70 002:237.578 - 0.010ms returns 0
T4B70 002:237.586 JLINK_WriteReg(R6, 0x00000000)
T4B70 002:237.592 - 0.010ms returns 0
T4B70 002:237.600 JLINK_WriteReg(R7, 0x00000000)
T4B70 002:237.607 - 0.010ms returns 0
T4B70 002:237.615 JLINK_WriteReg(R8, 0x00000000)
T4B70 002:237.622 - 0.010ms returns 0
T4B70 002:237.630 JLINK_WriteReg(R9, 0x100001DC)
T4B70 002:237.637 - 0.010ms returns 0
T4B70 002:237.644 JLINK_WriteReg(R10, 0x00000000)
T4B70 002:237.651 - 0.010ms returns 0
T4B70 002:237.659 JLINK_WriteReg(R11, 0x00000000)
T4B70 002:237.666 - 0.010ms returns 0
T4B70 002:237.674 JLINK_WriteReg(R12, 0x00000000)
T4B70 002:237.681 - 0.010ms returns 0
T4B70 002:237.689 JLINK_WriteReg(R13 (SP), 0x10000800)
T4B70 002:237.696 - 0.010ms returns 0
T4B70 002:237.704 JLINK_WriteReg(R14, 0x10000001)
T4B70 002:237.711 - 0.010ms returns 0
T4B70 002:237.719 JLINK_WriteReg(R15 (PC), 0x10000020)
T4B70 002:237.726 - 0.010ms returns 0
T4B70 002:237.734 JLINK_WriteReg(XPSR, 0x01000000)
T4B70 002:237.741 - 0.010ms returns 0
T4B70 002:237.749 JLINK_WriteReg(MSP, 0x10000800)
T4B70 002:237.755 - 0.010ms returns 0
T4B70 002:237.763 JLINK_WriteReg(PSP, 0x10000800)
T4B70 002:237.770 - 0.010ms returns 0
T4B70 002:237.778 JLINK_WriteReg(CFBP, 0x00000000)
T4B70 002:237.785 - 0.010ms returns 0
T4B70 002:237.793 JLINK_SetBPEx(Addr = 0x10000000, Type = 0xFFFFFFF2)
T4B70 002:237.801 - 0.011ms returns 0x00000004
T4B70 002:237.810 JLINK_Go()
T4B70 002:237.822    -- CPU_WriteMem(4 bytes @ 0xE0002000)
T4B70 002:251.335    -- CPU_ReadMem(4 bytes @ 0xE0001000)
T4B70 002:315.232 - 77.435ms
T4B70 002:315.268 JLINK_IsHalted()
T4B70 002:353.308 - 38.064ms returns TRUE
T4B70 002:353.357 JLINK_ReadReg(R15 (PC))
T4B70 002:353.368 - 0.015ms returns 0x10000000
T4B70 002:353.789 JLINK_ClrBPEx(BPHandle = 0x00000004)
T4B70 002:353.815 - 0.030ms returns 0x00
T4B70 002:353.825 JLINK_ReadReg(R0)
T4B70 002:353.832 - 0.011ms returns 0x00000001
T4B70 002:353.842 JLINK_HasError()
T4B70 002:353.850 JLINK_WriteReg(R0, 0x00001000)
T4B70 002:353.858 - 0.011ms returns 0
T4B70 002:353.866 JLINK_WriteReg(R1, 0x00001000)
T4B70 002:353.873 - 0.010ms returns 0
T4B70 002:353.881 JLINK_WriteReg(R2, 0x000000FF)
T4B70 002:353.888 - 0.010ms returns 0
T4B70 002:353.896 JLINK_WriteReg(R3, 0x00000000)
T4B70 002:353.903 - 0.010ms returns 0
T4B70 002:353.911 JLINK_WriteReg(R4, 0x00000000)
T4B70 002:353.918 - 0.010ms returns 0
T4B70 002:353.926 JLINK_WriteReg(R5, 0x00000000)
T4B70 002:353.932 - 0.010ms returns 0
T4B70 002:353.940 JLINK_WriteReg(R6, 0x00000000)
T4B70 002:353.947 - 0.010ms returns 0
T4B70 002:353.955 JLINK_WriteReg(R7, 0x00000000)
T4B70 002:353.962 - 0.010ms returns 0
T4B70 002:353.970 JLINK_WriteReg(R8, 0x00000000)
T4B70 002:353.977 - 0.010ms returns 0
T4B70 002:353.985 JLINK_WriteReg(R9, 0x100001DC)
T4B70 002:353.996 - 0.017ms returns 0
T4B70 002:354.007 JLINK_WriteReg(R10, 0x00000000)
T4B70 002:354.014 - 0.010ms returns 0
T4B70 002:354.022 JLINK_WriteReg(R11, 0x00000000)
T4B70 002:354.029 - 0.010ms returns 0
T4B70 002:354.037 JLINK_WriteReg(R12, 0x00000000)
T4B70 002:354.044 - 0.010ms returns 0
T4B70 002:354.052 JLINK_WriteReg(R13 (SP), 0x10000800)
T4B70 002:354.059 - 0.010ms returns 0
T4B70 002:354.067 JLINK_WriteReg(R14, 0x10000001)
T4B70 002:354.074 - 0.010ms returns 0
T4B70 002:354.082 JLINK_WriteReg(R15 (PC), 0x10000110)
T4B70 002:354.089 - 0.010ms returns 0
T4B70 002:354.097 JLINK_WriteReg(XPSR, 0x01000000)
T4B70 002:354.103 - 0.010ms returns 0
T4B70 002:354.111 JLINK_WriteReg(MSP, 0x10000800)
T4B70 002:354.118 - 0.010ms returns 0
T4B70 002:354.126 JLINK_WriteReg(PSP, 0x10000800)
T4B70 002:354.133 - 0.010ms returns 0
T4B70 002:354.141 JLINK_WriteReg(CFBP, 0x00000000)
T4B70 002:354.148 - 0.010ms returns 0
T4B70 002:354.156 JLINK_SetBPEx(Addr = 0x10000000, Type = 0xFFFFFFF2)
T4B70 002:354.164 - 0.011ms returns 0x00000005
T4B70 002:354.172 JLINK_Go()
T4B70 002:354.185    -- CPU_WriteMem(4 bytes @ 0xE0002000)
T4B70 002:368.305    -- CPU_ReadMem(4 bytes @ 0xE0001000)
T4B70 002:432.309 - 78.173ms
T4B70 002:432.380 JLINK_IsHalted()
T4B70 002:446.298 - 13.942ms returns FALSE
T4B70 002:446.349 JLINK_HasError()
T4B70 002:453.333 JLINK_IsHalted()
T4B70 002:467.184 - 13.866ms returns FALSE
T4B70 002:467.209 JLINK_HasError()
T4B70 002:468.346 JLINK_IsHalted()
T4B70 002:482.268 - 13.949ms returns FALSE
T4B70 002:482.312 JLINK_HasError()
T4B70 002:484.326 JLINK_IsHalted()
T4B70 002:498.302 - 14.011ms returns FALSE
T4B70 002:498.349 JLINK_HasError()
T4B70 002:500.335 JLINK_IsHalted()
T4B70 002:514.193 - 13.879ms returns FALSE
T4B70 002:514.241 JLINK_HasError()
T4B70 002:516.338 JLINK_IsHalted()
T4B70 002:554.305 - 37.991ms returns TRUE
T4B70 002:554.355 JLINK_ReadReg(R15 (PC))
T4B70 002:554.367 - 0.014ms returns 0x10000000
T4B70 002:554.790 JLINK_ClrBPEx(BPHandle = 0x00000005)
T4B70 002:554.816 - 0.030ms returns 0x00
T4B70 002:554.826 JLINK_ReadReg(R0)
T4B70 002:554.834 - 0.011ms returns 0x00000000
T4B70 002:555.474 JLINK_HasError()
T4B70 002:555.488 JLINK_WriteReg(R0, 0x00002000)
T4B70 002:555.498 - 0.012ms returns 0
T4B70 002:555.506 JLINK_WriteReg(R1, 0x00001000)
T4B70 002:555.513 - 0.010ms returns 0
T4B70 002:555.521 JLINK_WriteReg(R2, 0x000000FF)
T4B70 002:555.528 - 0.010ms returns 0
T4B70 002:555.536 JLINK_WriteReg(R3, 0x00000000)
T4B70 002:555.543 - 0.010ms returns 0
T4B70 002:555.551 JLINK_WriteReg(R4, 0x00000000)
T4B70 002:555.558 - 0.010ms returns 0
T4B70 002:555.566 JLINK_WriteReg(R5, 0x00000000)
T4B70 002:555.573 - 0.010ms returns 0
T4B70 002:555.580 JLINK_WriteReg(R6, 0x00000000)
T4B70 002:555.587 - 0.010ms returns 0
T4B70 002:555.595 JLINK_WriteReg(R7, 0x00000000)
T4B70 002:555.602 - 0.010ms returns 0
T4B70 002:555.610 JLINK_WriteReg(R8, 0x00000000)
T4B70 002:555.617 - 0.010ms returns 0
T4B70 002:555.625 JLINK_WriteReg(R9, 0x100001DC)
T4B70 002:555.631 - 0.010ms returns 0
T4B70 002:555.639 JLINK_WriteReg(R10, 0x00000000)
T4B70 002:555.646 - 0.010ms returns 0
T4B70 002:555.654 JLINK_WriteReg(R11, 0x00000000)
T4B70 002:555.661 - 0.010ms returns 0
T4B70 002:555.680 JLINK_WriteReg(R12, 0x00000000)
T4B70 002:555.687 - 0.010ms returns 0
T4B70 002:555.696 JLINK_WriteReg(R13 (SP), 0x10000800)
T4B70 002:555.703 - 0.010ms returns 0
T4B70 002:555.711 JLINK_WriteReg(R14, 0x10000001)
T4B70 002:555.718 - 0.010ms returns 0
T4B70 002:555.727 JLINK_WriteReg(R15 (PC), 0x10000020)
T4B70 002:555.744 - 0.020ms returns 0
T4B70 002:555.752 JLINK_WriteReg(XPSR, 0x01000000)
T4B70 002:555.758 - 0.010ms returns 0
T4B70 002:555.766 JLINK_WriteReg(MSP, 0x10000800)
T4B70 002:555.773 - 0.010ms returns 0
T4B70 002:555.781 JLINK_WriteReg(PSP, 0x10000800)
T4B70 002:555.788 - 0.010ms returns 0
T4B70 002:555.796 JLINK_WriteReg(CFBP, 0x00000000)
T4B70 002:555.803 - 0.010ms returns 0
T4B70 002:555.811 JLINK_SetBPEx(Addr = 0x10000000, Type = 0xFFFFFFF2)
T4B70 002:555.824 - 0.019ms returns 0x00000006
T4B70 002:555.835 JLINK_Go()
T4B70 002:555.848    -- CPU_WriteMem(4 bytes @ 0xE0002000)
T4B70 002:569.326    -- CPU_ReadMem(4 bytes @ 0xE0001000)
T4B70 002:633.245 - 77.444ms
T4B70 002:633.304 JLINK_IsHalted()
T4B70 002:671.331 - 38.050ms returns TRUE
T4B70 002:671.380 JLINK_ReadReg(R15 (PC))
T4B70 002:671.392 - 0.015ms returns 0x10000000
T4B70 002:671.810 JLINK_ClrBPEx(BPHandle = 0x00000006)
T4B70 002:671.836 - 0.029ms returns 0x00
T4B70 002:671.845 JLINK_ReadReg(R0)
T4B70 002:671.853 - 0.011ms returns 0x00000001
T4B70 002:671.862 JLINK_HasError()
T4B70 002:671.870 JLINK_WriteReg(R0, 0x00002000)
T4B70 002:671.878 - 0.011ms returns 0
T4B70 002:671.886 JLINK_WriteReg(R1, 0x00001000)
T4B70 002:671.893 - 0.010ms returns 0
T4B70 002:671.901 JLINK_WriteReg(R2, 0x000000FF)
T4B70 002:671.908 - 0.010ms returns 0
T4B70 002:671.916 JLINK_WriteReg(R3, 0x00000000)
T4B70 002:671.923 - 0.010ms returns 0
T4B70 002:671.931 JLINK_WriteReg(R4, 0x00000000)
T4B70 002:671.938 - 0.010ms returns 0
T4B70 002:671.946 JLINK_WriteReg(R5, 0x00000000)
T4B70 002:671.952 - 0.010ms returns 0
T4B70 002:671.960 JLINK_WriteReg(R6, 0x00000000)
T4B70 002:671.967 - 0.010ms returns 0
T4B70 002:671.975 JLINK_WriteReg(R7, 0x00000000)
T4B70 002:671.982 - 0.010ms returns 0
T4B70 002:671.990 JLINK_WriteReg(R8, 0x00000000)
T4B70 002:671.997 - 0.010ms returns 0
T4B70 002:672.005 JLINK_WriteReg(R9, 0x100001DC)
T4B70 002:672.012 - 0.010ms returns 0
T4B70 002:672.019 JLINK_WriteReg(R10, 0x00000000)
T4B70 002:672.026 - 0.010ms returns 0
T4B70 002:672.034 JLINK_WriteReg(R11, 0x00000000)
T4B70 002:672.041 - 0.010ms returns 0
T4B70 002:672.049 JLINK_WriteReg(R12, 0x00000000)
T4B70 002:672.056 - 0.010ms returns 0
T4B70 002:672.064 JLINK_WriteReg(R13 (SP), 0x10000800)
T4B70 002:672.071 - 0.010ms returns 0
T4B70 002:672.079 JLINK_WriteReg(R14, 0x10000001)
T4B70 002:672.086 - 0.010ms returns 0
T4B70 002:672.094 JLINK_WriteReg(R15 (PC), 0x10000110)
T4B70 002:672.101 - 0.010ms returns 0
T4B70 002:672.109 JLINK_WriteReg(XPSR, 0x01000000)
T4B70 002:672.115 - 0.010ms returns 0
T4B70 002:672.123 JLINK_WriteReg(MSP, 0x10000800)
T4B70 002:672.130 - 0.010ms returns 0
T4B70 002:672.138 JLINK_WriteReg(PSP, 0x10000800)
T4B70 002:672.145 - 0.010ms returns 0
T4B70 002:672.153 JLINK_WriteReg(CFBP, 0x00000000)
T4B70 002:672.160 - 0.010ms returns 0
T4B70 002:672.168 JLINK_SetBPEx(Addr = 0x10000000, Type = 0xFFFFFFF2)
T4B70 002:672.176 - 0.011ms returns 0x00000007
T4B70 002:672.184 JLINK_Go()
T4B70 002:672.196    -- CPU_WriteMem(4 bytes @ 0xE0002000)
T4B70 002:686.305    -- CPU_ReadMem(4 bytes @ 0xE0001000)
T4B70 002:750.297 - 78.137ms
T4B70 002:750.348 JLINK_IsHalted()
T4B70 002:764.296 - 13.973ms returns FALSE
T4B70 002:764.347 JLINK_HasError()
T4B70 002:769.331 JLINK_IsHalted()
T4B70 002:783.252 - 13.964ms returns FALSE
T4B70 002:783.318 JLINK_HasError()
T4B70 002:785.037 JLINK_IsHalted()
T4B70 002:799.331 - 14.325ms returns FALSE
T4B70 002:799.383 JLINK_HasError()
T4B70 002:801.307 JLINK_IsHalted()
T4B70 002:815.296 - 14.023ms returns FALSE
T4B70 002:815.351 JLINK_HasError()
T4B70 002:817.320 JLINK_IsHalted()
T4B70 002:831.300 - 14.017ms returns FALSE
T4B70 002:831.364 JLINK_HasError()
T4B70 002:833.309 JLINK_IsHalted()
T4B70 002:871.306 - 38.022ms returns TRUE
T4B70 002:871.357 JLINK_ReadReg(R15 (PC))
T4B70 002:871.369 - 0.014ms returns 0x10000000
T4B70 002:871.789 JLINK_ClrBPEx(BPHandle = 0x00000007)
T4B70 002:871.816 - 0.030ms returns 0x00
T4B70 002:871.826 JLINK_ReadReg(R0)
T4B70 002:871.834 - 0.011ms returns 0x00000000
T4B70 002:872.468 JLINK_HasError()
T4B70 002:872.482 JLINK_WriteReg(R0, 0x00003000)
T4B70 002:872.492 - 0.012ms returns 0
T4B70 002:872.500 JLINK_WriteReg(R1, 0x00001000)
T4B70 002:872.507 - 0.010ms returns 0
T4B70 002:872.515 JLINK_WriteReg(R2, 0x000000FF)
T4B70 002:872.522 - 0.010ms returns 0
T4B70 002:872.530 JLINK_WriteReg(R3, 0x00000000)
T4B70 002:872.537 - 0.010ms returns 0
T4B70 002:872.545 JLINK_WriteReg(R4, 0x00000000)
T4B70 002:872.552 - 0.065ms returns 0
T4B70 002:872.621 JLINK_WriteReg(R5, 0x00000000)
T4B70 002:872.629 - 0.011ms returns 0
T4B70 002:872.637 JLINK_WriteReg(R6, 0x00000000)
T4B70 002:872.643 - 0.010ms returns 0
T4B70 002:872.651 JLINK_WriteReg(R7, 0x00000000)
T4B70 002:872.658 - 0.010ms returns 0
T4B70 002:872.666 JLINK_WriteReg(R8, 0x00000000)
T4B70 002:872.673 - 0.010ms returns 0
T4B70 002:872.681 JLINK_WriteReg(R9, 0x100001DC)
T4B70 002:872.688 - 0.010ms returns 0
T4B70 002:872.696 JLINK_WriteReg(R10, 0x00000000)
T4B70 002:872.703 - 0.010ms returns 0
T4B70 002:872.711 JLINK_WriteReg(R11, 0x00000000)
T4B70 002:872.718 - 0.010ms returns 0
T4B70 002:872.726 JLINK_WriteReg(R12, 0x00000000)
T4B70 002:872.732 - 0.010ms returns 0
T4B70 002:872.740 JLINK_WriteReg(R13 (SP), 0x10000800)
T4B70 002:872.748 - 0.010ms returns 0
T4B70 002:872.756 JLINK_WriteReg(R14, 0x10000001)
T4B70 002:872.763 - 0.010ms returns 0
T4B70 002:872.770 JLINK_WriteReg(R15 (PC), 0x10000020)
T4B70 002:872.777 - 0.010ms returns 0
T4B70 002:872.785 JLINK_WriteReg(XPSR, 0x01000000)
T4B70 002:872.792 - 0.010ms returns 0
T4B70 002:872.800 JLINK_WriteReg(MSP, 0x10000800)
T4B70 002:872.807 - 0.010ms returns 0
T4B70 002:872.815 JLINK_WriteReg(PSP, 0x10000800)
T4B70 002:872.822 - 0.010ms returns 0
T4B70 002:872.830 JLINK_WriteReg(CFBP, 0x00000000)
T4B70 002:872.837 - 0.010ms returns 0
T4B70 002:872.845 JLINK_SetBPEx(Addr = 0x10000000, Type = 0xFFFFFFF2)
T4B70 002:872.853 - 0.011ms returns 0x00000008
T4B70 002:872.862 JLINK_Go()
T4B70 002:872.874    -- CPU_WriteMem(4 bytes @ 0xE0002000)
T4B70 002:886.294    -- CPU_ReadMem(4 bytes @ 0xE0001000)
T4B70 002:950.315 - 77.486ms
T4B70 002:950.374 JLINK_IsHalted()
T4B70 002:988.245 - 37.906ms returns TRUE
T4B70 002:988.306 JLINK_ReadReg(R15 (PC))
T4B70 002:988.317 - 0.015ms returns 0x10000000
T4B70 002:988.748 JLINK_ClrBPEx(BPHandle = 0x00000008)
T4B70 002:988.785 - 0.040ms returns 0x00
T4B70 002:988.794 JLINK_ReadReg(R0)
T4B70 002:988.802 - 0.011ms returns 0x00000001
T4B70 002:988.811 JLINK_HasError()
T4B70 002:988.820 JLINK_WriteReg(R0, 0x00003000)
T4B70 002:988.828 - 0.011ms returns 0
T4B70 002:988.836 JLINK_WriteReg(R1, 0x00001000)
T4B70 002:988.843 - 0.010ms returns 0
T4B70 002:988.851 JLINK_WriteReg(R2, 0x000000FF)
T4B70 002:988.858 - 0.010ms returns 0
T4B70 002:988.866 JLINK_WriteReg(R3, 0x00000000)
T4B70 002:988.872 - 0.010ms returns 0
T4B70 002:988.881 JLINK_WriteReg(R4, 0x00000000)
T4B70 002:988.887 - 0.010ms returns 0
T4B70 002:988.895 JLINK_WriteReg(R5, 0x00000000)
T4B70 002:988.902 - 0.010ms returns 0
T4B70 002:988.910 JLINK_WriteReg(R6, 0x00000000)
T4B70 002:988.917 - 0.010ms returns 0
T4B70 002:988.925 JLINK_WriteReg(R7, 0x00000000)
T4B70 002:988.932 - 0.010ms returns 0
T4B70 002:988.940 JLINK_WriteReg(R8, 0x00000000)
T4B70 002:988.946 - 0.010ms returns 0
T4B70 002:988.954 JLINK_WriteReg(R9, 0x100001DC)
T4B70 002:988.961 - 0.010ms returns 0
T4B70 002:988.969 JLINK_WriteReg(R10, 0x00000000)
T4B70 002:988.976 - 0.010ms returns 0
T4B70 002:988.984 JLINK_WriteReg(R11, 0x00000000)
T4B70 002:988.991 - 0.010ms returns 0
T4B70 002:988.999 JLINK_WriteReg(R12, 0x00000000)
T4B70 002:989.005 - 0.010ms returns 0
T4B70 002:989.013 JLINK_WriteReg(R13 (SP), 0x10000800)
T4B70 002:989.020 - 0.010ms returns 0
T4B70 002:989.028 JLINK_WriteReg(R14, 0x10000001)
T4B70 002:989.035 - 0.010ms returns 0
T4B70 002:989.043 JLINK_WriteReg(R15 (PC), 0x10000110)
T4B70 002:989.050 - 0.010ms returns 0
T4B70 002:989.058 JLINK_WriteReg(XPSR, 0x01000000)
T4B70 002:989.065 - 0.010ms returns 0
T4B70 002:989.073 JLINK_WriteReg(MSP, 0x10000800)
T4B70 002:989.080 - 0.010ms returns 0
T4B70 002:989.088 JLINK_WriteReg(PSP, 0x10000800)
T4B70 002:989.105 - 0.025ms returns 0
T4B70 002:989.117 JLINK_WriteReg(CFBP, 0x00000000)
T4B70 002:989.134 - 0.020ms returns 0
T4B70 002:989.142 JLINK_SetBPEx(Addr = 0x10000000, Type = 0xFFFFFFF2)
T4B70 002:989.151 - 0.011ms returns 0x00000009
T4B70 002:989.159 JLINK_Go()
T4B70 002:989.171    -- CPU_WriteMem(4 bytes @ 0xE0002000)
T4B70 003:003.255    -- CPU_ReadMem(4 bytes @ 0xE0001000)
T4B70 003:067.272 - 78.138ms
T4B70 003:067.313 JLINK_IsHalted()
T4B70 003:081.295 - 14.007ms returns FALSE
T4B70 003:081.346 JLINK_HasError()
T4B70 003:084.334 JLINK_IsHalted()
T4B70 003:098.291 - 13.982ms returns FALSE
T4B70 003:098.328 JLINK_HasError()
T4B70 003:099.640 JLINK_IsHalted()
T4B70 003:113.210 - 13.590ms returns FALSE
T4B70 003:113.254 JLINK_HasError()
T4B70 003:115.290 JLINK_IsHalted()
T4B70 003:129.279 - 14.015ms returns FALSE
T4B70 003:129.327 JLINK_HasError()
T4B70 003:132.296 JLINK_IsHalted()
T4B70 003:146.293 - 14.021ms returns FALSE
T4B70 003:146.344 JLINK_HasError()
T4B70 003:148.329 JLINK_IsHalted()
T4B70 003:162.220 - 13.906ms returns FALSE
T4B70 003:162.247 JLINK_HasError()
T4B70 003:164.213 JLINK_IsHalted()
T4B70 003:202.279 - 38.090ms returns TRUE
T4B70 003:202.330 JLINK_ReadReg(R15 (PC))
T4B70 003:202.341 - 0.014ms returns 0x10000000
T4B70 003:202.760 JLINK_ClrBPEx(BPHandle = 0x00000009)
T4B70 003:202.786 - 0.029ms returns 0x00
T4B70 003:202.796 JLINK_ReadReg(R0)
T4B70 003:202.804 - 0.011ms returns 0x00000000
T4B70 003:203.239 JLINK_HasError()
T4B70 003:203.263 JLINK_WriteReg(R0, 0x00000001)
T4B70 003:203.273 - 0.013ms returns 0
T4B70 003:203.281 JLINK_WriteReg(R1, 0x00001000)
T4B70 003:203.299 - 0.020ms returns 0
T4B70 003:203.307 JLINK_WriteReg(R2, 0x000000FF)
T4B70 003:203.314 - 0.010ms returns 0
T4B70 003:203.322 JLINK_WriteReg(R3, 0x00000000)
T4B70 003:203.328 - 0.010ms returns 0
T4B70 003:203.336 JLINK_WriteReg(R4, 0x00000000)
T4B70 003:203.343 - 0.010ms returns 0
T4B70 003:203.351 JLINK_WriteReg(R5, 0x00000000)
T4B70 003:203.358 - 0.010ms returns 0
T4B70 003:203.366 JLINK_WriteReg(R6, 0x00000000)
T4B70 003:203.372 - 0.010ms returns 0
T4B70 003:203.380 JLINK_WriteReg(R7, 0x00000000)
T4B70 003:203.387 - 0.010ms returns 0
T4B70 003:203.395 JLINK_WriteReg(R8, 0x00000000)
T4B70 003:203.402 - 0.010ms returns 0
T4B70 003:203.410 JLINK_WriteReg(R9, 0x100001DC)
T4B70 003:203.417 - 0.010ms returns 0
T4B70 003:203.424 JLINK_WriteReg(R10, 0x00000000)
T4B70 003:203.431 - 0.010ms returns 0
T4B70 003:203.439 JLINK_WriteReg(R11, 0x00000000)
T4B70 003:203.446 - 0.010ms returns 0
T4B70 003:203.454 JLINK_WriteReg(R12, 0x00000000)
T4B70 003:203.461 - 0.010ms returns 0
T4B70 003:203.469 JLINK_WriteReg(R13 (SP), 0x10000800)
T4B70 003:203.476 - 0.010ms returns 0
T4B70 003:203.484 JLINK_WriteReg(R14, 0x10000001)
T4B70 003:203.491 - 0.010ms returns 0
T4B70 003:203.499 JLINK_WriteReg(R15 (PC), 0x100000CC)
T4B70 003:203.505 - 0.010ms returns 0
T4B70 003:203.513 JLINK_WriteReg(XPSR, 0x01000000)
T4B70 003:203.520 - 0.010ms returns 0
T4B70 003:203.528 JLINK_WriteReg(MSP, 0x10000800)
T4B70 003:203.535 - 0.010ms returns 0
T4B70 003:203.543 JLINK_WriteReg(PSP, 0x10000800)
T4B70 003:203.550 - 0.010ms returns 0
T4B70 003:203.558 JLINK_WriteReg(CFBP, 0x00000000)
T4B70 003:203.564 - 0.010ms returns 0
T4B70 003:203.572 JLINK_SetBPEx(Addr = 0x10000000, Type = 0xFFFFFFF2)
T4B70 003:203.581 - 0.011ms returns 0x0000000A
T4B70 003:203.589 JLINK_Go()
T4B70 003:203.601    -- CPU_WriteMem(4 bytes @ 0xE0002000)
T4B70 003:217.307    -- CPU_ReadMem(4 bytes @ 0xE0001000)
T4B70 003:281.264 - 77.700ms
T4B70 003:281.306 JLINK_IsHalted()
T4B70 003:319.245 - 37.972ms returns TRUE
T4B70 003:319.304 JLINK_ReadReg(R15 (PC))
T4B70 003:319.316 - 0.015ms returns 0x10000000
T4B70 003:319.733 JLINK_ClrBPEx(BPHandle = 0x0000000A)
T4B70 003:319.760 - 0.030ms returns 0x00
T4B70 003:319.769 JLINK_ReadReg(R0)
T4B70 003:319.777 - 0.011ms returns 0x00000000
T4B70 003:378.201 JLINK_WriteMem(0x10000000, 0x1E4 Bytes, ...)
T4B70 003:378.220   Data:  00 BE 0A E0 0D 78 2D 06 68 40 08 24 40 00 00 D3 ...
T4B70 003:378.244    -- CPU_WriteMem(484 bytes @ 0x10000000)
T4B70 003:408.214 - 30.298ms returns 0x1E4
T4B70 003:409.147 JLINK_HasError()
T4B70 003:409.173 JLINK_WriteReg(R0, 0x00000000)
T4B70 003:409.185 - 0.014ms returns 0
T4B70 003:409.193 JLINK_WriteReg(R1, 0x00B71B00)
T4B70 003:409.200 - 0.010ms returns 0
T4B70 003:409.209 JLINK_WriteReg(R2, 0x00000002)
T4B70 003:409.223 - 0.017ms returns 0
T4B70 003:409.231 JLINK_WriteReg(R3, 0x00000000)
T4B70 003:409.238 - 0.010ms returns 0
T4B70 003:409.246 JLINK_WriteReg(R4, 0x00000000)
T4B70 003:409.253 - 0.010ms returns 0
T4B70 003:409.261 JLINK_WriteReg(R5, 0x00000000)
T4B70 003:409.267 - 0.010ms returns 0
T4B70 003:409.275 JLINK_WriteReg(R6, 0x00000000)
T4B70 003:409.282 - 0.010ms returns 0
T4B70 003:409.290 JLINK_WriteReg(R7, 0x00000000)
T4B70 003:409.297 - 0.010ms returns 0
T4B70 003:409.305 JLINK_WriteReg(R8, 0x00000000)
T4B70 003:409.312 - 0.010ms returns 0
T4B70 003:409.320 JLINK_WriteReg(R9, 0x100001DC)
T4B70 003:409.326 - 0.010ms returns 0
T4B70 003:409.334 JLINK_WriteReg(R10, 0x00000000)
T4B70 003:409.341 - 0.010ms returns 0
T4B70 003:409.349 JLINK_WriteReg(R11, 0x00000000)
T4B70 003:409.356 - 0.010ms returns 0
T4B70 003:409.364 JLINK_WriteReg(R12, 0x00000000)
T4B70 003:409.371 - 0.010ms returns 0
T4B70 003:409.379 JLINK_WriteReg(R13 (SP), 0x10000800)
T4B70 003:409.386 - 0.011ms returns 0
T4B70 003:409.394 JLINK_WriteReg(R14, 0x10000001)
T4B70 003:409.401 - 0.010ms returns 0
T4B70 003:409.409 JLINK_WriteReg(R15 (PC), 0x10000044)
T4B70 003:409.416 - 0.013ms returns 0
T4B70 003:409.427 JLINK_WriteReg(XPSR, 0x01000000)
T4B70 003:409.434 - 0.010ms returns 0
T4B70 003:409.442 JLINK_WriteReg(MSP, 0x10000800)
T4B70 003:409.449 - 0.010ms returns 0
T4B70 003:409.456 JLINK_WriteReg(PSP, 0x10000800)
T4B70 003:409.463 - 0.010ms returns 0
T4B70 003:409.471 JLINK_WriteReg(CFBP, 0x00000000)
T4B70 003:409.478 - 0.010ms returns 0
T4B70 003:409.486 JLINK_SetBPEx(Addr = 0x10000000, Type = 0xFFFFFFF2)
T4B70 003:409.495 - 0.012ms returns 0x0000000B
T4B70 003:409.504 JLINK_Go()
T4B70 003:409.516    -- CPU_WriteMem(4 bytes @ 0xE0002000)
T4B70 003:423.335    -- CPU_ReadMem(4 bytes @ 0xE0001000)
T4B70 003:487.310 - 77.839ms
T4B70 003:487.368 JLINK_IsHalted()
T4B70 003:525.219 - 37.871ms returns TRUE
T4B70 003:525.252 JLINK_ReadReg(R15 (PC))
T4B70 003:525.263 - 0.014ms returns 0x10000000
T4B70 003:525.694 JLINK_ClrBPEx(BPHandle = 0x0000000B)
T4B70 003:525.712 - 0.021ms returns 0x00
T4B70 003:525.722 JLINK_ReadReg(R0)
T4B70 003:525.730 - 0.011ms returns 0x00000000
T4B70 003:526.101 JLINK_WriteMem(0x10000204, 0x1FC Bytes, ...)
T4B70 003:526.113   Data:  20 07 00 10 71 01 00 00 79 01 00 00 7B 01 00 00 ...
T4B70 003:526.135    -- CPU_WriteMem(508 bytes @ 0x10000204)
T4B70 003:558.284 - 32.209ms returns 0x1FC
T4B70 003:558.336 JLINK_WriteMem(0x10000400, 0x204 Bytes, ...)
T4B70 003:558.344   Data:  05 F4 C5 F1 20 05 1E BF 22 FA 05 FC 44 EA 0C 04 ...
T4B70 003:558.372    -- CPU_WriteMem(516 bytes @ 0x10000400)
T4B70 003:590.287 - 31.975ms returns 0x204
T4B70 003:590.328 JLINK_HasError()
T4B70 003:590.340 JLINK_WriteReg(R0, 0x00000000)
T4B70 003:590.354 - 0.017ms returns 0
T4B70 003:590.364 JLINK_WriteReg(R1, 0x00000400)
T4B70 003:590.372 - 0.011ms returns 0
T4B70 003:590.785 JLINK_WriteReg(R2, 0x10000204)
T4B70 003:590.801 - 0.020ms returns 0
T4B70 003:590.811 JLINK_WriteReg(R3, 0x00000000)
T4B70 003:590.818 - 0.010ms returns 0
T4B70 003:590.827 JLINK_WriteReg(R4, 0x00000000)
T4B70 003:590.834 - 0.010ms returns 0
T4B70 003:590.842 JLINK_WriteReg(R5, 0x00000000)
T4B70 003:590.849 - 0.010ms returns 0
T4B70 003:590.857 JLINK_WriteReg(R6, 0x00000000)
T4B70 003:590.864 - 0.010ms returns 0
T4B70 003:590.872 JLINK_WriteReg(R7, 0x00000000)
T4B70 003:590.879 - 0.010ms returns 0
T4B70 003:590.888 JLINK_WriteReg(R8, 0x00000000)
T4B70 003:590.895 - 0.010ms returns 0
T4B70 003:590.903 JLINK_WriteReg(R9, 0x100001DC)
T4B70 003:590.910 - 0.010ms returns 0
T4B70 003:590.918 JLINK_WriteReg(R10, 0x00000000)
T4B70 003:590.925 - 0.010ms returns 0
T4B70 003:590.934 JLINK_WriteReg(R11, 0x00000000)
T4B70 003:590.941 - 0.010ms returns 0
T4B70 003:590.949 JLINK_WriteReg(R12, 0x00000000)
T4B70 003:590.956 - 0.010ms returns 0
T4B70 003:590.964 JLINK_WriteReg(R13 (SP), 0x10000800)
T4B70 003:590.972 - 0.011ms returns 0
T4B70 003:590.980 JLINK_WriteReg(R14, 0x10000001)
T4B70 003:590.992 - 0.018ms returns 0
T4B70 003:591.004 JLINK_WriteReg(R15 (PC), 0x10000156)
T4B70 003:591.011 - 0.010ms returns 0
T4B70 003:591.019 JLINK_WriteReg(XPSR, 0x01000000)
T4B70 003:591.026 - 0.010ms returns 0
T4B70 003:591.034 JLINK_WriteReg(MSP, 0x10000800)
T4B70 003:591.041 - 0.010ms returns 0
T4B70 003:591.050 JLINK_WriteReg(PSP, 0x10000800)
T4B70 003:591.057 - 0.010ms returns 0
T4B70 003:591.065 JLINK_WriteReg(CFBP, 0x00000000)
T4B70 003:591.072 - 0.010ms returns 0
T4B70 003:591.080 JLINK_SetBPEx(Addr = 0x10000000, Type = 0xFFFFFFF2)
T4B70 003:591.090 - 0.013ms returns 0x0000000C
T4B70 003:591.098 JLINK_Go()
T4B70 003:591.111    -- CPU_WriteMem(4 bytes @ 0xE0002000)
T4B70 003:605.332    -- CPU_ReadMem(4 bytes @ 0xE0001000)
T4B70 003:669.292 - 78.218ms
T4B70 003:669.343 JLINK_IsHalted()
T4B70 003:707.333 - 38.015ms returns TRUE
T4B70 003:707.374 JLINK_ReadReg(R15 (PC))
T4B70 003:707.386 - 0.015ms returns 0x10000000
T4B70 003:707.396 JLINK_ClrBPEx(BPHandle = 0x0000000C)
T4B70 003:707.405 - 0.012ms returns 0x00
T4B70 003:707.415 JLINK_ReadReg(R0)
T4B70 003:707.423 - 0.011ms returns 0x00000000
T4B70 003:708.035 JLINK_WriteMem(0x10000204, 0x1FC Bytes, ...)
T4B70 003:708.048   Data:  02 FB 00 90 01 FB 03 01 22 46 00 E0 11 E0 38 46 ...
T4B70 003:708.068    -- CPU_WriteMem(508 bytes @ 0x10000204)
T4B70 003:740.281 - 32.271ms returns 0x1FC
T4B70 003:740.333 JLINK_WriteMem(0x10000400, 0x204 Bytes, ...)
T4B70 003:740.341   Data:  40 F4 FF 00 08 60 08 46 00 6A 40 F0 60 50 08 62 ...
T4B70 003:740.366    -- CPU_WriteMem(516 bytes @ 0x10000400)
T4B70 003:772.282 - 31.983ms returns 0x204
T4B70 003:772.352 JLINK_HasError()
T4B70 003:772.780 JLINK_WriteReg(R0, 0x00000400)
T4B70 003:772.807 - 0.031ms returns 0
T4B70 003:772.816 JLINK_WriteReg(R1, 0x00000400)
T4B70 003:772.823 - 0.010ms returns 0
T4B70 003:772.832 JLINK_WriteReg(R2, 0x10000204)
T4B70 003:772.838 - 0.010ms returns 0
T4B70 003:772.847 JLINK_WriteReg(R3, 0x00000000)
T4B70 003:772.853 - 0.010ms returns 0
T4B70 003:772.861 JLINK_WriteReg(R4, 0x00000000)
T4B70 003:772.868 - 0.010ms returns 0
T4B70 003:772.876 JLINK_WriteReg(R5, 0x00000000)
T4B70 003:772.883 - 0.010ms returns 0
T4B70 003:772.891 JLINK_WriteReg(R6, 0x00000000)
T4B70 003:772.898 - 0.010ms returns 0
T4B70 003:772.906 JLINK_WriteReg(R7, 0x00000000)
T4B70 003:772.912 - 0.010ms returns 0
T4B70 003:772.920 JLINK_WriteReg(R8, 0x00000000)
T4B70 003:772.927 - 0.010ms returns 0
T4B70 003:772.935 JLINK_WriteReg(R9, 0x100001DC)
T4B70 003:772.942 - 0.010ms returns 0
T4B70 003:772.950 JLINK_WriteReg(R10, 0x00000000)
T4B70 003:772.957 - 0.010ms returns 0
T4B70 003:772.965 JLINK_WriteReg(R11, 0x00000000)
T4B70 003:772.972 - 0.010ms returns 0
T4B70 003:772.980 JLINK_WriteReg(R12, 0x00000000)
T4B70 003:772.986 - 0.010ms returns 0
T4B70 003:772.994 JLINK_WriteReg(R13 (SP), 0x10000800)
T4B70 003:773.002 - 0.010ms returns 0
T4B70 003:773.010 JLINK_WriteReg(R14, 0x10000001)
T4B70 003:773.017 - 0.010ms returns 0
T4B70 003:773.025 JLINK_WriteReg(R15 (PC), 0x10000156)
T4B70 003:773.032 - 0.010ms returns 0
T4B70 003:773.040 JLINK_WriteReg(XPSR, 0x01000000)
T4B70 003:773.047 - 0.010ms returns 0
T4B70 003:773.055 JLINK_WriteReg(MSP, 0x10000800)
T4B70 003:773.061 - 0.010ms returns 0
T4B70 003:773.069 JLINK_WriteReg(PSP, 0x10000800)
T4B70 003:773.076 - 0.010ms returns 0
T4B70 003:773.084 JLINK_WriteReg(CFBP, 0x00000000)
T4B70 003:773.091 - 0.010ms returns 0
T4B70 003:773.099 JLINK_SetBPEx(Addr = 0x10000000, Type = 0xFFFFFFF2)
T4B70 003:773.108 - 0.012ms returns 0x0000000D
T4B70 003:773.116 JLINK_Go()
T4B70 003:773.129    -- CPU_WriteMem(4 bytes @ 0xE0002000)
T4B70 003:787.301    -- CPU_ReadMem(4 bytes @ 0xE0001000)
T4B70 003:851.307 - 78.224ms
T4B70 003:851.366 JLINK_IsHalted()
T4B70 003:889.321 - 37.980ms returns TRUE
T4B70 003:889.372 JLINK_ReadReg(R15 (PC))
T4B70 003:889.383 - 0.015ms returns 0x10000000
T4B70 003:889.803 JLINK_ClrBPEx(BPHandle = 0x0000000D)
T4B70 003:889.829 - 0.030ms returns 0x00
T4B70 003:889.838 JLINK_ReadReg(R0)
T4B70 003:889.850 - 0.018ms returns 0x00000000
T4B70 003:890.492 JLINK_WriteMem(0x10000204, 0x1FC Bytes, ...)
T4B70 003:890.505   Data:  00 BF 02 46 5B 6D 62 F3 07 03 75 4D 6B 65 2B 46 ...
T4B70 003:890.525    -- CPU_WriteMem(508 bytes @ 0x10000204)
T4B70 003:922.279 - 31.812ms returns 0x1FC
T4B70 003:922.331 JLINK_WriteMem(0x10000400, 0x204 Bytes, ...)
T4B70 003:922.340   Data:  01 20 FF F7 0B FE 4F F4 E0 61 02 20 FF F7 06 FE ...
T4B70 003:922.365    -- CPU_WriteMem(516 bytes @ 0x10000400)
T4B70 003:954.294 - 31.996ms returns 0x204
T4B70 003:954.353 JLINK_HasError()
T4B70 003:954.782 JLINK_WriteReg(R0, 0x00000800)
T4B70 003:954.810 - 0.031ms returns 0
T4B70 003:954.819 JLINK_WriteReg(R1, 0x00000400)
T4B70 003:954.826 - 0.010ms returns 0
T4B70 003:954.835 JLINK_WriteReg(R2, 0x10000204)
